!Keysight Technologies,E5080B,MY59100962,A.19.30.08
!Date: Friday, May 30, 2025 15:29:30
!Correction: S11(C  3-Port  ) 
!S12(C  3-Port  ) 
!S13(C  3-Port  ) 
!S21(C  3-Port  ) 
!S22(C  3-Port  ) 
!S23(C  3-Port  ) 
!S31(C  3-Port  ) 
!S32(C  3-Port  ) 
!S33(C  3-Port  ) 
!S3P File: Measurements: <S11,S12,S13>,
!<S21,S22,S23>,
!<S31,S32,S33>:
# Hz S  dB   R 50
1000000 -45.013351 22.825623 -0.055066433 -1.4901444 -74.813576 -66.431694
-0.051485192 -1.4457247 -43.196789 34.535431 -89.445023 -13.321479
-82.55629 -83.825516 -81.857315 105.44735 -0.12037078 178.18683
10998750 -35.881458 31.637993 -0.10797597 -14.675983 -85.776794 -161.38866
-0.10311382 -14.706635 -36.067631 34.145668 -83.102203 -12.722295
-83.790314 -177.8298 -82.077065 3.0981636 -0.7103287 171.32201
20997500 -32.612434 23.760565 -0.13146412 -27.80204 -87.344017 -162.07599
-0.13459019 -27.806377 -33.363991 31.2213 -82.838387 -12.988618
-81.94503 165.5688 -81.250595 -17.22007 -0.93377322 166.10715
30996250 -30.30547 11.777822 -0.15202254 -40.865162 -81.218185 134.87584
-0.15844731 -40.853218 -31.286301 26.525742 -86.024956 8.1306887
-81.897766 159.48515 -90.084404 27.180656 -1.1025921 161.06432
40995000 -28.837996 -1.9425572 -0.17877944 -53.920616 -82.811157 150.71352
-0.18105014 -53.91386 -30.357887 20.505678 -83.289009 -35.354954
-81.216087 122.06042 -79.967232 -27.377169 -1.2247748 156.18054
50993750 -27.991083 -16.681866 -0.19620679 -66.91568 -81.410759 153.14848
-0.2052134 -66.941399 -29.806587 14.94943 -83.676292 -28.22986
-82.702827 150.28847 -82.672356 -26.913124 -1.3313594 151.28116
60992500 -27.292934 -30.457582 -0.21853384 -79.951263 -84.104912 129.86055
-0.220817 -79.916428 -29.425306 10.898631 -82.547943 -40.486992
-81.344719 116.34192 -82.746506 -31.05307 -1.4105244 146.41281
70991250 -26.945206 -45.061699 -0.23574217 -92.918465 -80.835831 106.71254
-0.23867758 -92.939423 -29.357748 6.5999165 -83.89222 -42.936291
-82.425064 108.71531 -83.071793 -34.380951 -1.4950072 141.5499
80990000 -26.95314 -59.322468 -0.26160702 -105.9111 -80.980804 84.082817
-0.26281193 -105.93279 -29.139444 4.562623 -82.486237 -44.500324
-82.688324 97.575546 -83.581818 -47.629402 -1.5656261 136.68517
90988750 -26.922853 -75.259682 -0.27768865 -118.85701 -81.780617 66.281441
-0.27944681 -118.8842 -29.0229 0.29385161 -84.157913 -39.476204
-82.162849 79.972885 -82.375336 -43.306561 -1.6317137 131.80061
100987500 -27.210863 -90.94767 -0.29069439 -131.84879 -81.798378 67.645386
-0.29972181 -131.81573 -29.03009 -2.7155044 -79.873863 -44.052795
-83.105316 51.849682 -83.517181 -55.535172 -1.6973681 126.94258
110986250 -27.837748 -108.70467 -0.31292343 -144.79639 -79.550751 58.715973
-0.31713298 -144.79204 -28.520096 -6.5429702 -83.845779 -49.976009
-80.644279 47.412895 -83.718582 -43.840946 -1.7527575 122.03568
120985000 -28.437027 -124.62033 -0.33048072 -157.71983 -81.055336 42.157822
-0.32641453 -157.7598 -28.313736 -9.4995661 -81.221352 -69.109566
-81.57048 46.598465 -79.057121 -56.324181 -1.8143407 117.10767
130983750 -29.493793 -142.59534 -0.34418067 -170.64383 -79.412773 37.913612
-0.34995431 -170.675 -27.89757 -14.305571 -79.96566 -75.321014
-79.180092 33.323326 -84.133057 -59.803841 -1.8732085 112.23938
140982500 -30.194677 -161.09212 -0.36158174 176.40819 -80.081268 12.196153
-0.3655709 176.41975 -27.628101 -20.230957 -78.151489 -65.464409
-79.010414 22.03533 -81.081879 -66.503746 -1.9272785 107.34872
150981250 -31.420956 -178.69492 -0.37252986 163.48529 -79.485802 2.9686906
-0.38144004 163.48151 -27.690639 -27.708536 -80.778946 -62.01437
-80.083572 -1.7219827 -82.422127 -75.413231 -1.9813606 102.41853
160980000 -32.519112 161.51059 -0.39334008 150.56689 -80.60891 -26.00827
-0.39581287 150.56334 -27.896456 -36.464386 -79.794945 -70.709343
-79.167938 -18.466774 -78.059189 -70.269966 -2.0390558 97.565971
170978750 -33.825008 139.83873 -0.40358883 137.67982 -79.052223 -31.224804
-0.40765661 137.63257 -28.270157 -45.634281 -76.59626 -77.480446
-78.699852 -37.47575 -77.701508 -69.314407 -2.097218 92.617363
180977500 -34.710052 120.01338 -0.41867432 124.72041 -75.689812 -73.893364
-0.4235695 124.73454 -28.768549 -55.085136 -75.781746 -67.324409
-76.933441 -79.778099 -74.44223 -69.504387 -2.1587753 87.782425
190976250 -35.768032 98.846848 -0.43088993 111.79024 -72.352119 -110.85597
-0.43607539 111.80839 -29.622034 -65.417725 -71.287315 -78.695305
-71.830475 -112.00004 -71.176033 -74.028511 -2.2238853 83.021492
200975000 -36.628048 81.068504 -0.44354793 98.908516 -65.326508 -157.89603
-0.4437277 98.903275 -30.724358 -78.251526 -66.07489 -92.102089
-65.575531 -160.82544 -65.949516 -92.610588 -2.2520692 78.754883
210973750 -37.133602 67.91304 -0.45395222 85.974197 -63.086029 112.05698
-0.45975977 85.971809 -32.29324 -93.940056 -64.10228 -150.57597
-63.244617 114.47398 -63.996662 -152.61269 -2.085566 73.406731
220972500 -37.326172 56.232471 -0.46589065 73.098076 -66.806351 67.593758
-0.4709819 73.087311 -33.931141 -110.68538 -67.709747 -176.65298
-66.585014 71.090157 -67.477509 -177.56628 -2.1859338 67.726051
230971250 -36.960968 48.731499 -0.47495508 60.162136 -67.577484 40.299778
-0.48594704 60.160664 -36.445686 -131.93301 -68.722694 165.44055
-66.88028 39.545918 -68.589111 162.02486 -2.2559941 62.563858
240970000 -36.381546 41.90873 -0.49017069 47.247749 -68.419731 12.794344
-0.49628606 47.2859 -37.803745 -158.29294 -70.717621 147.05672
-68.852516 13.631247 -71.300377 147.6786 -2.3385909 57.547699
250968750 -35.13998 35.531792 -0.50367874 34.350132 -69.911835 -2.5897348
-0.51048332 34.359249 -38.058685 172.1813 -72.776169 140.85167
-69.888695 -1.9195515 -72.456879 141.47267 -2.4059141 52.546314
260967500 -33.517235 29.636375 -0.517676 21.437897 -71.218315 -14.731408
-0.51935816 21.436453 -37.206799 144.47099 -72.961792 137.94606
-71.080894 -16.43664 -72.709137 134.88181 -2.4626107 47.674503
270966250 -31.714907 18.317265 -0.52786344 8.5437441 -71.215118 -27.545649
-0.53269166 8.5417261 -35.25861 125.83285 -73.477913 131.93915
-71.885544 -26.7997 -73.389175 175.39035 -2.5233781 42.784576
280965000 -29.766794 10.120507 -0.53677768 -4.3691745 -72.531151 -35.662857
-0.54005343 -4.3633161 -33.542088 112.46188 -73.249809 129.58148
-72.304527 -40.025944 -76.620506 121.30804 -2.5766091 37.917397
290963750 -28.124624 -2.2994518 -0.55571693 -17.278282 -71.968002 -48.405544
-0.55108082 -17.234186 -31.870167 104.39275 -72.869537 116.94535
-72.072517 -44.098858 -72.625397 117.89317 -2.6288209 33.100376
300962500 -26.748774 -15.48272 -0.55793518 -30.151205 -72.346291 -55.136635
-0.56924391 -30.186756 -30.463257 96.837395 -73.514854 107.85721
-72.199783 -61.996807 -73.403229 112.32113 -2.668288 28.344088
310961250 -25.430017 -28.599102 -0.57297277 -43.085102 -72.986053 -63.779728
-0.57254362 -43.051067 -28.924713 90.054253 -73.514336 99.15506
-72.902809 -60.865669 -73.732773 99.489151 -2.7210343 23.623457
320960000 -24.359529 -42.234726 -0.58624083 -55.988937 -72.733246 -67.891586
-0.59135216 -55.952209 -27.584906 84.758148 -72.749016 89.378532
-72.634018 -69.653709 -72.727753 97.131989 -2.7523665 18.924654
330958750 -23.44239 -56.450745 -0.5992381 -68.85675 -73.375572 -79.423569
-0.60395539 -68.880898 -26.122355 78.042381 -73.407455 82.481926
-72.770714 -80.464928 -73.71003 86.813217 -2.7808383 14.297677
340957500 -22.598969 -70.304001 -0.61271524 -81.748253 -72.592392 -89.511131
-0.61585009 -81.775848 -24.739677 70.102341 -72.57283 73.206764
-73.535728 -89.360481 -72.491928 74.661537 -2.8027873 9.7497683
350956250 -21.852154 -84.825264 -0.62469792 -94.678871 -72.299728 -103.97768
-0.62667239 -94.667824 -23.580568 61.793152 -73.531975 62.012962
-73.348572 -90.563087 -72.767899 67.596718 -2.8186984 5.2204285
360955000 -21.352474 -99.034904 -0.63710886 -107.51929 -73.515366 -100.92519
-0.6441893 -107.54047 -22.521111 53.200275 -73.007568 55.946323
-73.595734 -102.59822 -71.768295 55.713535 -2.8303404 0.68131316
370953750 -20.955624 -113.45246 -0.65542299 -120.40883 -73.626244 -110.09105
-0.65807468 -120.43238 -21.638468 44.136879 -72.569695 48.965912
-73.483162 -106.56986 -73.023758 46.185608 -2.8384552 -3.7606382
380952500 -20.627979 -128.13054 -0.66751432 -133.24902 -73.172989 -117.09464
-0.67215437 -133.28212 -20.831789 34.338375 -71.702065 36.167572
-73.351837 -115.65513 -72.377556 39.226391 -2.8264461 -8.2453814
390951250 -20.544342 -142.73781 -0.68121505 -146.12222 -73.290825 -123.01816
-0.68452919 -146.11334 -20.291058 24.294249 -72.702248 28.256979
-73.068733 -118.20972 -72.320808 27.729662 -2.8183966 -12.677551
400950000 -20.467014 -157.43692 -0.68986917 -158.94775 -73.020203 -126.0258
-0.69482905 -158.9588 -19.81834 13.321546 -72.086983 21.553139
-73.924461 -129.15155 -72.027657 21.805529 -2.8058667 -17.116102
410948750 -20.572838 -171.40334 -0.70137846 -171.79269 -73.48304 -137.17499
-0.70904607 -171.82452 -19.607014 3.3138716 -71.817177 8.8214569
-73.973572 -132.11858 -71.682976 8.1373949 -2.799417 -21.52475
420947500 -20.841137 174.15213 -0.70778602 175.33177 -74.941162 -145.93474
-0.71395588 175.34259 -19.529766 -8.4488544 -72.090843 -3.6957169
-74.491295 -147.22939 -72.474648 2.4090779 -2.7776573 -25.967474
430946250 -21.114241 160.03749 -0.71988827 162.50085 -77.537529 -142.85283
-0.7169742 162.5191 -19.677692 -19.471535 -71.403465 -7.0235472
-75.823997 -149.62413 -70.865738 -11.692334 -2.760504 -30.346125
440945000 -21.612658 145.69728 -0.7220853 149.67235 -74.04966 -138.79707
-0.72546196 149.67665 -19.967657 -30.848761 -70.921761 -21.670706
-74.242538 -141.79678 -71.276352 -24.190964 -2.7479491 -34.725517
450943750 -22.26265 131.68851 -0.72652239 136.80328 -73.252754 -152.47006
-0.72867411 136.81587 -20.462673 -42.600895 -70.388992 -34.203667
-74.168098 -154.13986 -71.11866 -35.297112 -2.7304935 -39.089886
460942500 -23.096176 117.37918 -0.73205101 123.9567 -73.085533 -155.87567
-0.73093283 123.9389 -21.171825 -54.407909 -71.356964 -52.440559
-73.349602 -157.40482 -71.92009 -41.80294 -2.7054224 -43.397354
470941250 -24.111052 102.21726 -0.7307362 111.0758 -73.319565 -163.36726
-0.73501694 111.06783 -22.107138 -65.866348 -70.720444 -64.214104
-72.863571 -164.77406 -70.616486 -62.684868 -2.6937432 -47.711136
480940000 -25.223173 88.708641 -0.730757 98.155716 -73.489052 -169.96722
-0.73510861 98.153221 -23.461683 -77.975845 -70.967102 -66.814827
-73.408867 -166.72139 -70.626793 -74.486687 -2.6846597 -52.009312
490938750 -26.799196 74.006409 -0.73337603 85.279533 -73.699219 -176.85812
-0.74232894 85.26004 -25.055225 -89.901077 -71.111107 -84.531944
-74.480217 -174.07584 -71.156715 -79.870232 -2.6679521 -56.273136
500937500 -28.474705 57.62722 -0.74296963 72.392036 -74.502708 171.36963
-0.74201387 72.393394 -27.180546 -101.54082 -70.976868 -94.599586
-74.257614 -177.79236 -71.255081 -95.865562 -2.6518254 -60.527954
510936250 -30.487423 41.586708 -0.74497181 59.512089 -74.268326 178.36467
-0.74511629 59.440884 -29.946373 -113.11992 -71.816437 -104.11111
-74.859184 179.12381 -71.797768 -109.01807 -2.6431105 -64.737106
520935000 -32.737427 22.940903 -0.74777287 46.566265 -73.979851 175.67528
-0.75407588 46.579166 -33.856022 -122.90318 -71.862206 -125.11385
-73.273674 174.33928 -71.188385 -121.31458 -2.6327488 -68.943901
530933750 -34.65527 0.23098694 -0.75655001 33.660393 -73.761635 165.5759
-0.7649433 33.688332 -40.177784 -121.38011 -71.106987 -134.78479
-73.842094 170.48123 -71.108948 -131.71381 -2.6132307 -73.119644
540932500 -36.486156 -25.122326 -0.76799572 20.749498 -74.490005 170.15811
-0.76922297 20.739614 -48.100121 -85.583397 -71.520294 -150.88109
-74.153351 166.58533 -71.842072 -147.98138 -2.6111913 -77.328995
550931250 -37.176453 -51.486317 -0.77578157 7.8682361 -73.25351 170.15077
-0.77780765 7.8468485 -42.923546 -34.25906 -71.933128 -168.28313
-73.888062 168.71841 -71.384003 -166.69928 -2.5979249 -81.466484
560930000 -36.24543 -76.753677 -0.77984333 -5.062655 -71.916969 169.06931
-0.78791058 -5.078752 -39.076515 -36.981716 -71.759323 174.84891
-72.218407 170.09764 -71.706566 174.06775 -2.5966959 -85.593208
570928750 -35.177399 -90.900246 -0.79221237 -17.966389 -70.865173 164.87158
-0.79749429 -17.956724 -37.738964 -54.402424 -72.01535 154.52861
-70.914215 165.29776 -72.182106 158.53247 -2.59905 -89.746712
580927500 -33.25499 -104.10926 -0.79987317 -30.872459 -69.695129 163.85556
-0.80437309 -30.864248 -36.938988 -73.982086 -72.654854 140.78915
-68.723984 159.43109 -72.333794 131.18388 -2.6050944 -93.912338
590926250 -31.348907 -113.18099 -0.80951637 -43.801056 -67.330536 155.27399
-0.81299955 -43.812717 -36.726074 -112.21723 -73.072807 105.48342
-67.336594 154.61508 -72.787697 105.56007 -2.5973327 -98.086487
600925000 -29.461699 -122.2107 -0.81962872 -56.689674 -65.908333 146.76746
-0.82261503 -56.676342 -35.047325 -149.71611 -72.565163 71.967987
-64.958832 145.64203 -73.736122 74.116928 -2.5940232 -102.2892
610923750 -27.353561 -131.27785 -0.82859099 -69.598854 -63.252853 130.45929
-0.83551645 -69.601448 -31.908697 178.32008 -71.954323 24.683996
-63.524414 129.72951 -72.339638 26.52648 -2.5971398 -106.56374
620922500 -25.604483 -141.83545 -0.84424841 -82.519012 -61.575024 108.20683
-0.84981632 -82.489731 -28.520708 151.77684 -70.618507 -28.550304
-61.798195 111.34315 -70.985641 -22.62933 -2.5832691 -110.81468
630921250 -24.032835 -150.86972 -0.86227572 -95.430771 -61.097561 88.757309
-0.8651945 -95.419693 -26.067116 131.3577 -68.429794 -70.083755
-60.878437 89.65136 -68.786903 -68.365341 -2.5849178 -115.25211
640920000 -22.539179 -162.14706 -0.87726092 -108.33288 -60.99258 61.092888
-0.88657421 -108.27749 -23.667114 114.31033 -67.880814 -115.04269
-61.11549 61.376122 -67.584473 -114.47731 -2.589519 -119.80264
650918750 -21.298113 -173.25662 -0.90011662 -121.2022 -62.242386 40.354622
-0.90029752 -121.19759 -21.841719 98.37442 -68.56868 -150.0634
-62.308964 38.271511 -67.805138 -154.57214 -2.6194828 -124.39022
660917500 -20.201973 174.75043 -0.92002195 -134.01695 -63.623795 26.458397
-0.9211784 -134.01921 -20.290613 83.625542 -68.999786 -178.64418
-63.683201 26.055593 -68.494514 -175.13882 -2.6583908 -128.97211
670916250 -19.265736 162.83292 -0.93592799 -146.89485 -65.042549 10.28583
-0.94206142 -146.84813 -19.05092 69.613914 -69.423271 160.2485
-65.186821 10.933775 -69.039581 161.81766 -2.6974313 -133.61932
680915000 -18.442522 151.02075 -0.95832127 -159.70406 -66.157265 3.5269616
-0.95791715 -159.66034 -17.97875 56.117554 -69.733917 141.12338
-66.782104 -0.63656962 -70.338867 140.13644 -2.7464828 -138.33797
690913750 -17.896551 138.8356 -0.97653991 -172.52179 -67.334427 -6.837523
-0.97834182 -172.47575 -17.152172 43.123669 -70.335266 125.25594
-67.566277 -8.5128889 -70.459785 123.72054 -2.7996321 -143.2339
700912500 -17.420897 126.24905 -0.9908101 174.72459 -68.25087 -17.986799
-0.9966979 174.75253 -16.63471 29.749866 -71.420357 105.64542
-68.577118 -13.57851 -72.101456 103.2389 -2.8622885 -148.16469
710911250 -17.107708 114.13679 -1.0041747 161.98575 -69.903572 -29.967632
-1.0078529 161.98016 -16.208519 16.611094 -73.168678 91.61245
-69.238892 -27.603361 -71.817947 90.717888 -2.926717 -153.34895
720910000 -16.961077 101.70954 -1.0138279 149.19621 -70.699478 -40.428455
-1.0127299 149.21178 -16.007168 4.3055687 -72.131073 75.34465
-71.397476 -37.200752 -73.239754 79.916763 -3.0037031 -158.62332
730908750 -16.968266 89.040276 -1.0099223 136.44456 -71.835426 -54.917961
-1.0181088 136.48209 -16.008259 -8.0168648 -72.953018 55.608791
-71.643639 -57.121487 -73.921188 55.116276 -3.0926781 -164.20013
740907500 -17.121708 76.456726 -1.0099086 123.65894 -74.370781 -67.12645
-1.0152744 123.71062 -16.17185 -20.201225 -76.223106 38.423294
-73.425278 -70.815865 -74.378738 40.961693 -3.1928308 -169.92535
750906250 -17.428259 63.724735 -1.0114737 110.90241 -75.088234 -88.72496
-1.0090529 110.91352 -16.557758 -32.405937 -76.214859 19.301863
-75.151939 -81.461014 -77.278923 20.674978 -3.3067048 -175.94676
760905000 -17.919025 50.588806 -0.99817491 98.077629 -77.499886 -104.17107
-1.0002114 98.070412 -17.156284 -44.464897 -78.514862 10.048996
-76.803581 -105.77476 -78.836174 10.682946 -3.4359684 177.77626
770903750 -18.60343 37.622017 -0.99212539 85.257401 -80.454529 -128.47145
-0.99199235 85.284973 -17.973391 -56.095741 -82.90213 -28.061625
-84.716454 -132.98227 -79.634026 -29.722969 -3.5781682 171.17142
780902500 -19.510874 24.698847 -0.98174238 72.382668 -78.449631 175.37465
-0.98136014 72.386253 -19.05142 -67.344971 -85.085884 -88.413727
-79.953339 167.18423 -81.876511 -82.610611 -3.7374368 164.22121
790901250 -20.607763 11.308302 -0.9665944 59.499855 -75.31736 131.2755
-0.97476017 59.521847 -20.533787 -77.664764 -79.08461 -138.71802
-75.332466 129.58936 -79.697372 -138.69608 -3.91678 156.83662
800900000 -22.010752 -2.4741602 -0.9665727 46.595879 -71.208946 105.90782
-0.96401805 46.613064 -22.415613 -87.071877 -74.24189 -172.07777
-71.601067 104.16331 -74.093414 -170.45663 -4.1158853 149.01569
810898750 -23.805048 -17.351614 -0.96562397 33.656799 -68.082024 87.360023
-0.96469265 33.645832 -24.735041 -93.391388 -70.274239 162.85233
-67.726768 86.797096 -69.912971 159.37109 -4.3271565 140.86549
820897500 -26.047384 -33.862301 -0.96157926 20.726124 -64.754372 64.959572
-0.96586812 20.73657 -27.550449 -95.779396 -66.074265 141.24477
-64.80146 66.707474 -65.761246 138.44249 -4.5518045 132.13559
830896250 -28.968931 -54.317249 -0.95694876 7.7709198 -61.490211 45.469231
-0.96787745 7.7839084 -30.892466 -86.509315 -62.356728 114.62881
-61.568062 45.99543 -62.576591 113.19231 -4.7734714 123.06718
840895000 -32.427612 -79.640846 -0.96952528 -5.1543951 -58.027031 22.01404
-0.97487259 -5.1338701 -32.41468 -65.807487 -58.779312 86.10067
-58.468994 24.329948 -59.583363 87.520973 -4.9682994 113.73243
850893750 -35.591049 -123.67447 -0.97528344 -18.091955 -54.856537 -11.608521
-0.9787569 -18.051851 -30.86618 -47.770359 -55.351166 49.107738
-54.823753 -9.74543 -55.391376 50.02676 -5.0157156 104.08323
860892500 -35.234634 -171.02435 -0.98336238 -30.962204 -53.170273 -54.503632
-0.98572701 -30.993364 -28.695721 -45.010559 -53.461479 2.4895344
-53.038155 -56.155563 -53.399448 0.18927236 -4.8382497 92.377686
870891250 -32.907108 155.03075 -0.99987137 -43.890236 -55.15543 -97.719139
-0.99911445 -43.899452 -27.353266 -52.469398 -54.960224 -41.784309
-54.899128 -97.012093 -54.969845 -41.348755 -4.8790126 78.106277
880890000 -30.555323 136.46141 -1.0093226 -56.792751 -57.550495 -124.90201
-1.0105011 -56.730118 -26.412947 -63.581139 -57.282764 -72.588623
-57.666073 -122.16487 -57.37933 -73.89296 -5.0490227 64.449524
890888750 -29.07655 123.79747 -1.0198258 -69.678665 -60.000881 -142.42361
-1.0203871 -69.640488 -26.008457 -78.035378 -59.283794 -97.229858
-59.78857 -144.58731 -59.316593 -96.637993 -5.1618299 51.003189
900887500 -27.885851 113.70374 -1.0260882 -82.557953 -61.891125 -159.75255
-1.0279744 -82.539856 -26.036041 -94.206657 -61.212543 -114.39318
-61.87561 -159.11601 -61.255283 -115.55725 -5.1893487 37.792221
910886250 -27.089386 107.61735 -1.0344114 -95.431046 -63.507038 -172.49347
-1.0389471 -95.434166 -26.309504 -116.19258 -62.669815 -130.57043
-63.696159 -172.43489 -62.614422 -132.39824 -5.131393 24.728224
920885000 -26.367449 102.41229 -1.0438743 -108.34675 -65.473747 175.5937
-1.0462817 -108.33095 -26.581774 -139.78038 -64.204514 -146.48892
-65.728867 173.6734 -64.386856 -147.82222 -5.0073886 12.000002
930883750 -25.529356 99.688164 -1.0529613 -121.24739 -66.889633 164.73792
-1.0556955 -121.24245 -26.347498 -168.42238 -65.725685 -161.39529
-67.03299 164.75189 -65.774399 -160.42084 -4.8316545 -0.25910226
940882500 -24.488682 95.384834 -1.0627464 -134.14655 -68.503677 153.71907
-1.0693485 -134.1252 -25.70542 162.51657 -67.265831 -173.80107
